T15BC 3826:721 SEGGER J-Link V6.30h Log File (0000ms, 19359ms total)
T15BC 3826:721 DLL Compiled: Mar 16 2018 18:02:51 (0000ms, 19359ms total)
T15BC 3826:721 Logging started @ 2018-11-14 23:19 (0000ms, 19359ms total)
T15BC 3826:721 JLINK_SetWarnOutHandler(...) (0000ms, 19359ms total)
T15BC 3826:721 JLINK_OpenEx(...)
Firmware: J-Link V9 compiled Mar  2 2018 17:07:57
Hardware: V9.20
Feature(s): RDI, GDB, FlashDL, FlashBP, JFlash
TELNET listener socket opened on port 19021WEBSRV 
Starting webserver (0124ms, 19483ms total)
T15BC 3826:721 WEBSRV Webserver running on local port 19081 (0125ms, 19484ms total)
T15BC 3826:721   returns O.K. (0125ms, 19484ms total)
T15BC 3826:847 JLINK_GetEmuCaps()  returns 0xB9FF7BBF (0000ms, 19484ms total)
T15BC 3826:847 JLINK_TIF_GetAvailable(...) (0001ms, 19485ms total)
T15BC 3826:848 JLINK_SetErrorOutHandler(...) (0000ms, 19485ms total)
T15BC 3826:848 JLINK_ExecCommand("ProjectFile = "D:\model\PowerModule_Modify\MDK-ARM\JLinkSettings.ini"", ...).   returns 0x00 (0002ms, 19487ms total)
T15BC 3826:850 JLINK_ExecCommand("Device = STM32F107VC", ...). Device "STM32F107VC" selected.  returns 0x00 (0001ms, 19488ms total)
T15BC 3826:851 JLINK_ExecCommand("DisableConnectionTimeout", ...).   returns 0x01 (0000ms, 19488ms total)
T15BC 3826:851 JLINK_GetHardwareVersion()  returns 0x16760 (0000ms, 19488ms total)
T15BC 3826:851 JLINK_GetDLLVersion()  returns 63008 (0000ms, 19488ms total)
T15BC 3826:851 JLINK_GetFirmwareString(...) (0000ms, 19488ms total)
T15BC 3826:851 JLINK_GetDLLVersion()  returns 63008 (0000ms, 19488ms total)
T15BC 3826:851 JLINK_GetCompileDateTime() (0000ms, 19488ms total)
T15BC 3826:851 JLINK_GetFirmwareString(...) (0000ms, 19488ms total)
T15BC 3826:851 JLINK_GetHardwareVersion()  returns 0x16760 (0000ms, 19488ms total)
T15BC 3826:852 JLINK_TIF_Select(JLINKARM_TIF_SWD)  returns 0x00 (0005ms, 19493ms total)
T15BC 3826:857 JLINK_SetSpeed(5000) (0001ms, 19494ms total)
T15BC 3826:858 JLINK_GetId() >0x10B TIF>Found SW-DP with ID 0x1BA01477 >0x0D TIF> >0x28 TIF> >0x0D TIF> >0x28 TIF> >0x0D TIF> >0x28 TIF> >0x0D TIF> >0x28 TIF> >0x0D TIF> >0x21 TIF> >0x0D TIF> >0x28 TIF> >0x0D TIF> >0x28 TIF> >0x0D TIF> >0x28 TIF> >0x0D TIF> >0x21 TIF> >0x0D TIF> >0x21 TIF> >0x0D TIF> >0x28 TIF> >0x0D TIF> >0x21 TIF> >0x0D TIF> >0x21 TIF> >0x0D TIF> >0x28 TIF> >0x0D TIF> >0x21 TIF> >0x0D TIF> >0x21 TIF> >0x0D TIF> >0x28 TIF> >0x0D TIF> >0x21 TIF> >0x0D TIF> >0x21 TIF> >0x0D TIF>
 >0x28 TIF> >0x0D TIF> >0x21 TIF> >0x0D TIF> >0x21 TIF> >0x0D TIF> >0x28 TIF> >0x0D TIF> >0x21 TIF> >0x0D TIF> >0x21 TIF> >0x0D TIF> >0x28 TIF> >0x0D TIF> >0x21 TIF> >0x0D TIF> >0x21 TIF> >0x10B TIF>Found SW-DP with ID 0x1BA01477 >0x0D TIF> >0x28 TIF> >0x0D TIF> >0x28 TIF> >0x0D TIF> >0x28 TIF> >0x0D TIF> >0x28 TIF> >0x0D TIF> >0x21 TIF> >0x0D TIF> >0x28 TIF>Scanning AP map to find all available APs >0x0D TIF> >0x28 TIF> >0x0D TIF> >0x21 TIF> >0x0D TIF> >0x21 TIF> >0x0D TIF> >0x28 TIF> >0x0D TIF>
 >0x21 TIF> >0x0D TIF> >0x21 TIF>AP[1]: Stopped AP scan as end of AP map has been reachedAP[0]: AHB-AP (IDR: 0x14770011)Iterating through AP map to find AHB-AP to use >0x42 TIF> >0x28 TIF> >0x0D TIF> >0x28 TIF> >0x0D TIF> >0x21 TIF> >0x0D TIF> >0x21 TIF> >0x42 TIF> >0x28 TIF> >0x0D TIF> >0x28 TIF> >0x0D TIF> >0x28 TIF> >0x0D TIF> >0x21 TIF> >0x0D TIF> >0x21 TIF>AP[0]: Core foundAP[0]: AHB-AP ROM base: 0xE00FF000 >0x0D TIF> >0x28 TIF> >0x0D TIF> >0x28 TIF> >0x0D TIF> >0x28 TIF> >0x0D TIF> >0x21 TIF>
 >0x0D TIF> >0x21 TIF>CPUID register: 0x411FC231. Implementer code: 0x41 (ARM)Found Cortex-M3 r1p1, Little endian. -- CPU_ReadMem(4 bytes @ 0xE000EDF0) -- CPU_ReadMem(4 bytes @ 0xE0002000)FPUnit: 6 code (BP) slots and 2 literal slots -- CPU_ReadMem(4 bytes @ 0xE000EDFC) -- CPU_ReadMem(4 bytes @ 0xE0001000) -- CPU_WriteMem(4 bytes @ 0xE0001000) -- CPU_ReadMem(4 bytes @ 0xE000ED88) -- CPU_WriteMem(4 bytes @ 0xE000ED88) -- CPU_ReadMem(4 bytes @ 0xE000ED88) -- CPU_WriteMem(4 bytes @ 0xE000ED88)
CoreSight components:ROMTbl[0] @ E00FF000 -- CPU_ReadMem(16 bytes @ 0xE00FF000) -- CPU_ReadMem(16 bytes @ 0xE000EFF0) -- CPU_ReadMem(16 bytes @ 0xE000EFE0)ROMTbl[0][0]: E000E000, CID: B105E00D, PID: 001BB000 SCS -- CPU_ReadMem(16 bytes @ 0xE0001FF0) -- CPU_ReadMem(16 bytes @ 0xE0001FE0)ROMTbl[0][1]: E0001000, CID: B105E00D, PID: 001BB002 DWT -- CPU_ReadMem(16 bytes @ 0xE0002FF0) -- CPU_ReadMem(16 bytes @ 0xE0002FE0)ROMTbl[0][2]: E0002000, CID: B105E00D, PID: 000BB003 FPB
 -- CPU_ReadMem(16 bytes @ 0xE0000FF0) -- CPU_ReadMem(16 bytes @ 0xE0000FE0)ROMTbl[0][3]: E0000000, CID: B105E00D, PID: 001BB001 ITM -- CPU_ReadMem(16 bytes @ 0xE00FF010) -- CPU_ReadMem(16 bytes @ 0xE0040FF0) -- CPU_ReadMem(16 bytes @ 0xE0040FE0)ROMTbl[0][4]: E0040000, CID: B105900D, PID: 001BB923 TPIU-Lite -- CPU_ReadMem(16 bytes @ 0xE0041FF0) -- CPU_ReadMem(16 bytes @ 0xE0041FE0)ROMTbl[0][5]: E0041000, CID: B105900D, PID: 101BB924 ETM-M3 >0x0D TIF> >0x21 TIF>  returns 0x1BA01477
 (0247ms, 19741ms total)
T15BC 3827:105 JLINK_GetDLLVersion()  returns 63008 (0000ms, 19741ms total)
T15BC 3827:105 JLINK_CORE_GetFound()  returns 0x30000FF (0000ms, 19741ms total)
T15BC 3827:105 JLINK_GetDebugInfo(0x100 = JLINKARM_ROM_TABLE_ADDR_INDEX) -- Value=0xE00FF000  returns 0x00 (0000ms, 19741ms total)
T15BC 3827:105 JLINK_GetDebugInfo(0x100 = JLINKARM_ROM_TABLE_ADDR_INDEX) -- Value=0xE00FF000  returns 0x00 (0000ms, 19741ms total)
T15BC 3827:105 JLINK_GetDebugInfo(0x101 = JLINKARM_DEBUG_INFO_ETM_ADDR_INDEX) -- Value=0xE0041000  returns 0x00 (0000ms, 19741ms total)
T15BC 3827:105 JLINK_ReadMemEx(0xE0041FD0, 0x0020 Bytes, ..., Flags = 0x02000004) -- CPU_ReadMem(32 bytes @ 0xE0041FD0) - Data: 04 00 00 00 00 00 00 00 00 00 00 00 00 00 00 00 ...  returns 0x20 (0001ms, 19742ms total)
T15BC 3827:106 JLINK_GetDebugInfo(0x102 = JLINKARM_DEBUG_INFO_MTB_ADDR_INDEX) -- Value=0x00000000  returns 0x00 (0000ms, 19742ms total)
T15BC 3827:106 JLINK_GetDebugInfo(0x103 = JLINKARM_DEBUG_INFO_TPIU_ADDR_INDEX) -- Value=0xE0040000  returns 0x00 (0000ms, 19742ms total)
T15BC 3827:106 JLINK_GetDebugInfo(0x104 = JLINKARM_DEBUG_INFO_ITM_ADDR_INDEX) -- Value=0xE0000000  returns 0x00 (0000ms, 19742ms total)
T15BC 3827:106 JLINK_GetDebugInfo(0x105 = JLINKARM_DEBUG_INFO_DWT_ADDR_INDEX) -- Value=0xE0001000  returns 0x00 (0000ms, 19742ms total)
T15BC 3827:106 JLINK_GetDebugInfo(0x106 = JLINKARM_DEBUG_INFO_FPB_ADDR_INDEX) -- Value=0xE0002000  returns 0x00 (0000ms, 19742ms total)
T15BC 3827:106 JLINK_GetDebugInfo(0x107 = JLINKARM_DEBUG_INFO_NVIC_ADDR_INDEX) -- Value=0xE000E000  returns 0x00 (0000ms, 19742ms total)
T15BC 3827:106 JLINK_GetDebugInfo(0x10C = JLINKARM_DEBUG_INFO_DBG_ADDR_INDEX) -- Value=0xE000EDF0  returns 0x00 (0000ms, 19742ms total)
T15BC 3827:106 JLINK_GetDebugInfo(0x01 = Unknown) -- Value=0x00000000  returns 0x00 (0000ms, 19742ms total)
T15BC 3827:106 JLINK_ReadMemU32(0xE000ED00, 0x0001 Items, ...) -- CPU_ReadMem(4 bytes @ 0xE000ED00) - Data: 31 C2 1F 41  returns 0x01 (0001ms, 19743ms total)
T15BC 3827:107 JLINK_GetDebugInfo(0x10F = JLINKARM_DEBUG_INFO_HAS_CORTEX_M_SECURITY_EXT_INDEX) -- Value=0x00000000  returns 0x00 (0000ms, 19743ms total)
T15BC 3827:107 JLINK_SetResetType(JLINKARM_CM3_RESET_TYPE_NORMAL)  returns JLINKARM_CM3_RESET_TYPE_NORMAL (0000ms, 19743ms total)
T15BC 3827:107 JLINK_Reset() -- CPU is running -- CPU_WriteMem(4 bytes @ 0xE000EDF0) -- CPU is running -- CPU_WriteMem(4 bytes @ 0xE000EDFC)Reset: Halt core after reset via DEMCR.VC_CORERESET. >0x35 TIF>Reset: Reset device via AIRCR.SYSRESETREQ. -- CPU is running -- CPU_WriteMem(4 bytes @ 0xE000ED0C) >0x0D TIF> >0x28 TIF> -- CPU_ReadMem(4 bytes @ 0xE000EDF0) -- CPU_ReadMem(4 bytes @ 0xE000EDF0) -- CPU is running -- CPU_WriteMem(4 bytes @ 0xE000EDF0) -- CPU is running -- CPU_WriteMem(4 bytes @ 0xE000EDFC)
 -- CPU_ReadMem(4 bytes @ 0xE000EDF0) -- CPU_WriteMem(4 bytes @ 0xE0002000) -- CPU_ReadMem(4 bytes @ 0xE000EDFC) -- CPU_ReadMem(4 bytes @ 0xE0001000) (0073ms, 19816ms total)
T15BC 3827:180 JLINK_ReadReg(R15 (PC))  returns 0x08000164 (0000ms, 19816ms total)
T15BC 3827:180 JLINK_ReadReg(XPSR)  returns 0x01000000 (0000ms, 19816ms total)
T15BC 3827:180 JLINK_Halt()  returns 0x00 (0000ms, 19816ms total)
T15BC 3827:180 JLINK_ReadMemU32(0xE000EDF0, 0x0001 Items, ...) -- CPU_ReadMem(4 bytes @ 0xE000EDF0) - Data: 03 00 03 00  returns 0x01 (0001ms, 19817ms total)
T15BC 3827:181 JLINK_WriteU32(0xE000EDF0, 0xA05F0003) -- CPU_WriteMem(4 bytes @ 0xE000EDF0)  returns 0x00 (0001ms, 19818ms total)
T15BC 3827:182 JLINK_WriteU32(0xE000EDFC, 0x01000000) -- CPU_WriteMem(4 bytes @ 0xE000EDFC)  returns 0x00 (0001ms, 19819ms total)
T15BC 3827:183 JLINK_GetHWStatus(...)  returns 0x00 (0001ms, 19820ms total)
T15BC 3827:184 JLINK_GetNumBPUnits(Type = 0xFFFFFF00)  returns 0x06 (0000ms, 19820ms total)
T15BC 3827:184 JLINK_GetNumBPUnits(Type = 0xF0)  returns 0x2000 (0000ms, 19820ms total)
T15BC 3827:184 JLINK_GetNumWPUnits()  returns 0x04 (0000ms, 19820ms total)
T15BC 3827:184 JLINK_GetSpeed()  returns 0xFA0 (0000ms, 19820ms total)
T15BC 3827:184 JLINK_ReadMemU32(0xE000E004, 0x0001 Items, ...) -- CPU_ReadMem(4 bytes @ 0xE000E004) - Data: 02 00 00 00  returns 0x01 (0001ms, 19821ms total)
T15BC 3827:185 JLINK_ReadMemU32(0xE000E004, 0x0001 Items, ...) -- CPU_ReadMem(4 bytes @ 0xE000E004) - Data: 02 00 00 00  returns 0x01 (0001ms, 19822ms total)
T15BC 3827:186 JLINK_WriteMemEx(0xE0001000, 0x001C Bytes, ..., Flags = 0x02000004) - Data: 01 00 00 00 00 00 00 00 00 00 00 00 00 00 00 00 ... -- CPU_WriteMem(28 bytes @ 0xE0001000)  returns 0x1C (0002ms, 19824ms total)
T15BC 3827:188 JLINK_ReadReg(R15 (PC))  returns 0x08000164 (0000ms, 19824ms total)
T15BC 3827:188 JLINK_ReadReg(XPSR)  returns 0x01000000 (0000ms, 19824ms total)
T15BC 3827:296 JLINK_SetResetType(JLINKARM_CM3_RESET_TYPE_NORMAL)  returns JLINKARM_CM3_RESET_TYPE_NORMAL (0000ms, 19824ms total)
T15BC 3827:296 JLINK_Reset() -- CPU_WriteMem(4 bytes @ 0xE000EDF0) -- CPU_WriteMem(4 bytes @ 0xE000EDFC)Reset: Halt core after reset via DEMCR.VC_CORERESET. >0x35 TIF>Reset: Reset device via AIRCR.SYSRESETREQ. -- CPU_WriteMem(4 bytes @ 0xE000ED0C) >0x0D TIF> >0x28 TIF> -- CPU_ReadMem(4 bytes @ 0xE000EDF0) -- CPU_ReadMem(4 bytes @ 0xE000EDF0) -- CPU_WriteMem(4 bytes @ 0xE000EDF0) -- CPU_WriteMem(4 bytes @ 0xE000EDFC) -- CPU_ReadMem(4 bytes @ 0xE000EDF0) -- CPU_WriteMem(4 bytes @ 0xE0002000)
 -- CPU_ReadMem(4 bytes @ 0xE000EDFC) -- CPU_ReadMem(4 bytes @ 0xE0001000) (0073ms, 19897ms total)
T15BC 3827:369 JLINK_ReadReg(R15 (PC))  returns 0x08000164 (0000ms, 19897ms total)
T15BC 3827:369 JLINK_ReadReg(XPSR)  returns 0x01000000 (0000ms, 19897ms total)
T15BC 3827:370 JLINK_ReadMemEx(0x08000164, 0x003C Bytes, ..., Flags = 0x02000000) -- CPU_ReadMem(128 bytes @ 0x08000140) -- Updating C cache (128 bytes @ 0x08000140) -- Read from C cache (60 bytes @ 0x08000164) - Data: 06 48 80 47 06 48 00 47 FE E7 FE E7 FE E7 FE E7 ...  returns 0x3C (0001ms, 19898ms total)
T15BC 3829:435 JLINK_ReadReg(R0)  returns 0x00000000 (0001ms, 19899ms total)
T15BC 3829:436 JLINK_ReadReg(R1)  returns 0x00000003 (0000ms, 19899ms total)
T15BC 3829:436 JLINK_ReadReg(R2)  returns 0x40022000 (0000ms, 19899ms total)
T15BC 3829:436 JLINK_ReadReg(R3)  returns 0x04C11DB7 (0000ms, 19899ms total)
T15BC 3829:436 JLINK_ReadReg(R4)  returns 0x00000000 (0000ms, 19899ms total)
T15BC 3829:436 JLINK_ReadReg(R5)  returns 0x00000000 (0000ms, 19899ms total)
T15BC 3829:436 JLINK_ReadReg(R6)  returns 0x00000000 (0000ms, 19899ms total)
T15BC 3829:436 JLINK_ReadReg(R7)  returns 0x00000000 (0000ms, 19899ms total)
T15BC 3829:436 JLINK_ReadReg(R8)  returns 0x00000000 (0000ms, 19899ms total)
T15BC 3829:436 JLINK_ReadReg(R9)  returns 0x20000160 (0000ms, 19899ms total)
T15BC 3829:436 JLINK_ReadReg(R10)  returns 0x00000000 (0000ms, 19899ms total)
T15BC 3829:436 JLINK_ReadReg(R11)  returns 0x00000000 (0000ms, 19899ms total)
T15BC 3829:436 JLINK_ReadReg(R12)  returns 0x00000000 (0000ms, 19899ms total)
T15BC 3829:437 JLINK_ReadReg(R13 (SP))  returns 0x20000590 (0000ms, 19899ms total)
T15BC 3829:437 JLINK_ReadReg(R14)  returns 0xFFFFFFFF (0000ms, 19899ms total)
T15BC 3829:437 JLINK_ReadReg(R15 (PC))  returns 0x08000164 (0000ms, 19899ms total)
T15BC 3829:437 JLINK_ReadReg(XPSR)  returns 0x01000000 (0000ms, 19899ms total)
T15BC 3829:437 JLINK_ReadReg(MSP)  returns 0x20000590 (0000ms, 19899ms total)
T15BC 3829:437 JLINK_ReadReg(PSP)  returns 0x20001000 (0000ms, 19899ms total)
T15BC 3829:437 JLINK_ReadReg(CFBP)  returns 0x00000000 (0000ms, 19899ms total)
T36F8 3829:527 JLINK_ReadMemEx(0x08000164, 0x0002 Bytes, ..., Flags = 0x02000000) -- Read from C cache (2 bytes @ 0x08000164) - Data: 06 48  returns 0x02 (0000ms, 19899ms total)
T36F8 3829:527 JLINK_SetBPEx(Addr = 0x08004018, Type = 0xFFFFFFF2)  returns 0x00000001 (0000ms, 19899ms total)
T36F8 3829:527 JLINK_SetBPEx(Addr = 0x08004072, Type = 0xFFFFFFF2)  returns 0x00000002 (0000ms, 19899ms total)
T36F8 3829:527 JLINK_SetBPEx(Addr = 0x08000AAE, Type = 0xFFFFFFF2)  returns 0x00000003 (0000ms, 19899ms total)
T36F8 3829:527 JLINK_Go() -- CPU_WriteMem(4 bytes @ 0xE0002000) -- CPU_WriteMem(4 bytes @ 0xE0002000) -- CPU_WriteMem(4 bytes @ 0xE0002000) -- CPU_ReadMem(4 bytes @ 0xE0001000) -- CPU_WriteMem(4 bytes @ 0xE0002008) -- CPU_WriteMem(4 bytes @ 0xE000200C) -- CPU_WriteMem(4 bytes @ 0xE0002010) -- CPU_WriteMem(4 bytes @ 0xE0002014) -- CPU_WriteMem(4 bytes @ 0xE0002018) -- CPU_WriteMem(4 bytes @ 0xE000201C) -- CPU_WriteMem(4 bytes @ 0xE0001004) (0009ms, 19908ms total)
T36F8 3829:636 JLINK_IsHalted()  returns TRUE (0003ms, 19911ms total)
T36F8 3829:639 JLINK_Halt()  returns 0x00 (0000ms, 19908ms total)
T36F8 3829:639 JLINK_IsHalted()  returns TRUE (0000ms, 19908ms total)
T36F8 3829:639 JLINK_IsHalted()  returns TRUE (0000ms, 19908ms total)
T36F8 3829:639 JLINK_IsHalted()  returns TRUE (0000ms, 19908ms total)
T36F8 3829:639 JLINK_ReadReg(R15 (PC))  returns 0x08004018 (0000ms, 19908ms total)
T36F8 3829:639 JLINK_ReadReg(XPSR)  returns 0x61000000 (0000ms, 19908ms total)
T36F8 3829:639 JLINK_ClrBPEx(BPHandle = 0x00000001)  returns 0x00 (0000ms, 19908ms total)
T36F8 3829:639 JLINK_ClrBPEx(BPHandle = 0x00000002)  returns 0x00 (0000ms, 19908ms total)
T36F8 3829:639 JLINK_ClrBPEx(BPHandle = 0x00000003)  returns 0x00 (0000ms, 19908ms total)
T36F8 3829:639 JLINK_ReadMemU32(0xE000ED30, 0x0001 Items, ...) -- CPU_ReadMem(4 bytes @ 0xE000ED30) - Data: 02 00 00 00  returns 0x01 (0001ms, 19909ms total)
T36F8 3829:640 JLINK_ReadMemU32(0xE0001028, 0x0001 Items, ...) -- CPU_ReadMem(4 bytes @ 0xE0001028) - Data: 00 00 00 00  returns 0x01 (0001ms, 19910ms total)
T36F8 3829:641 JLINK_ReadMemU32(0xE0001038, 0x0001 Items, ...) -- CPU_ReadMem(4 bytes @ 0xE0001038) - Data: 00 02 00 00  returns 0x01 (0001ms, 19911ms total)
T36F8 3829:642 JLINK_ReadMemU32(0xE0001048, 0x0001 Items, ...) -- CPU_ReadMem(4 bytes @ 0xE0001048) - Data: 00 00 00 00  returns 0x01 (0001ms, 19912ms total)
T36F8 3829:643 JLINK_ReadMemU32(0xE0001058, 0x0001 Items, ...) -- CPU_ReadMem(4 bytes @ 0xE0001058) - Data: 00 00 00 00  returns 0x01 (0001ms, 19913ms total)
T36F8 3829:644 JLINK_ReadReg(R0)  returns 0x08004019 (0000ms, 19913ms total)
T36F8 3829:644 JLINK_ReadReg(R1)  returns 0x20000590 (0000ms, 19913ms total)
T36F8 3829:644 JLINK_ReadReg(R2)  returns 0x00000000 (0000ms, 19913ms total)
T36F8 3829:644 JLINK_ReadReg(R3)  returns 0x08004009 (0000ms, 19913ms total)
T36F8 3829:644 JLINK_ReadReg(R4)  returns 0x0800422C (0000ms, 19913ms total)
T36F8 3829:644 JLINK_ReadReg(R5)  returns 0x0800422C (0000ms, 19913ms total)
T36F8 3829:644 JLINK_ReadReg(R6)  returns 0x00000000 (0000ms, 19913ms total)
T36F8 3829:644 JLINK_ReadReg(R7)  returns 0x00000000 (0000ms, 19913ms total)
T36F8 3829:644 JLINK_ReadReg(R8)  returns 0x00000000 (0000ms, 19913ms total)
T36F8 3829:644 JLINK_ReadReg(R9)  returns 0x20000160 (0000ms, 19913ms total)
T36F8 3829:644 JLINK_ReadReg(R10)  returns 0x00000000 (0000ms, 19913ms total)
T36F8 3829:644 JLINK_ReadReg(R11)  returns 0x00000000 (0000ms, 19913ms total)
T36F8 3829:644 JLINK_ReadReg(R12)  returns 0x00000000 (0000ms, 19913ms total)
T36F8 3829:644 JLINK_ReadReg(R13 (SP))  returns 0x20000590 (0000ms, 19913ms total)
T36F8 3829:644 JLINK_ReadReg(R14)  returns 0x0800091D (0000ms, 19913ms total)
T36F8 3829:644 JLINK_ReadReg(R15 (PC))  returns 0x08004018 (0001ms, 19914ms total)
T36F8 3829:645 JLINK_ReadReg(XPSR)  returns 0x61000000 (0000ms, 19914ms total)
T36F8 3829:645 JLINK_ReadReg(MSP)  returns 0x20000590 (0000ms, 19914ms total)
T36F8 3829:645 JLINK_ReadReg(PSP)  returns 0x20001000 (0000ms, 19914ms total)
T36F8 3829:645 JLINK_ReadReg(CFBP)  returns 0x00000000 (0000ms, 19914ms total)
T36F8 3831:845 JLINK_ReadMemEx(0x08004018, 0x0002 Bytes, ..., Flags = 0x02000000) -- CPU_ReadMem(64 bytes @ 0x08004000) -- Updating C cache (64 bytes @ 0x08004000) -- Read from C cache (2 bytes @ 0x08004018) - Data: FE F7  returns 0x02 (0001ms, 19915ms total)
T36F8 3831:846 JLINK_SetBPEx(Addr = 0x08004072, Type = 0xFFFFFFF2)  returns 0x00000004 (0000ms, 19915ms total)
T36F8 3831:846 JLINK_SetBPEx(Addr = 0x08000AAE, Type = 0xFFFFFFF2)  returns 0x00000005 (0000ms, 19915ms total)
T36F8 3831:846 JLINK_Go() -- CPU_WriteMem(4 bytes @ 0xE0002000) -- CPU_WriteMem(4 bytes @ 0xE0002000) -- CPU_ReadMem(4 bytes @ 0xE0001000) -- CPU_WriteMem(4 bytes @ 0xE0002008) -- CPU_WriteMem(4 bytes @ 0xE000200C) -- CPU_WriteMem(4 bytes @ 0xE0002010) (0006ms, 19921ms total)
T36F8 3831:952 JLINK_IsHalted()  returns TRUE (0003ms, 19924ms total)
T36F8 3831:955 JLINK_Halt()  returns 0x00 (0000ms, 19921ms total)
T36F8 3831:955 JLINK_IsHalted()  returns TRUE (0000ms, 19921ms total)
T36F8 3831:955 JLINK_IsHalted()  returns TRUE (0000ms, 19921ms total)
T36F8 3831:955 JLINK_IsHalted()  returns TRUE (0000ms, 19921ms total)
T36F8 3831:955 JLINK_ReadReg(R15 (PC))  returns 0x08004072 (0000ms, 19921ms total)
T36F8 3831:955 JLINK_ReadReg(XPSR)  returns 0x01000000 (0000ms, 19921ms total)
T36F8 3831:955 JLINK_ClrBPEx(BPHandle = 0x00000004)  returns 0x00 (0000ms, 19921ms total)
T36F8 3831:955 JLINK_ClrBPEx(BPHandle = 0x00000005)  returns 0x00 (0000ms, 19921ms total)
T36F8 3831:955 JLINK_ReadMemU32(0xE000ED30, 0x0001 Items, ...) -- CPU_ReadMem(4 bytes @ 0xE000ED30) - Data: 02 00 00 00  returns 0x01 (0001ms, 19922ms total)
T36F8 3831:956 JLINK_ReadMemU32(0xE0001028, 0x0001 Items, ...) -- CPU_ReadMem(4 bytes @ 0xE0001028) - Data: 00 00 00 00  returns 0x01 (0001ms, 19923ms total)
T36F8 3831:957 JLINK_ReadMemU32(0xE0001038, 0x0001 Items, ...) -- CPU_ReadMem(4 bytes @ 0xE0001038) - Data: 00 02 00 00  returns 0x01 (0001ms, 19924ms total)
T36F8 3831:958 JLINK_ReadMemU32(0xE0001048, 0x0001 Items, ...) -- CPU_ReadMem(4 bytes @ 0xE0001048) - Data: 00 00 00 00  returns 0x01 (0001ms, 19925ms total)
T36F8 3831:959 JLINK_ReadMemU32(0xE0001058, 0x0001 Items, ...) -- CPU_ReadMem(4 bytes @ 0xE0001058) - Data: 00 00 00 00  returns 0x01 (0001ms, 19926ms total)
T36F8 3831:960 JLINK_ReadReg(R0)  returns 0x00000001 (0000ms, 19926ms total)
T36F8 3831:960 JLINK_ReadReg(R1)  returns 0x80800000 (0000ms, 19926ms total)
T36F8 3831:960 JLINK_ReadReg(R2)  returns 0x2000017C (0000ms, 19926ms total)
T36F8 3831:960 JLINK_ReadReg(R3)  returns 0x00000000 (0000ms, 19926ms total)
T36F8 3831:960 JLINK_ReadReg(R4)  returns 0x200000A0 (0000ms, 19926ms total)
T36F8 3831:960 JLINK_ReadReg(R5)  returns 0x20000016 (0000ms, 19926ms total)
T36F8 3831:960 JLINK_ReadReg(R6)  returns 0x20000017 (0000ms, 19926ms total)
T36F8 3831:960 JLINK_ReadReg(R7)  returns 0x00000000 (0000ms, 19926ms total)
T36F8 3831:960 JLINK_ReadReg(R8)  returns 0x20000014 (0000ms, 19926ms total)
T36F8 3831:960 JLINK_ReadReg(R9)  returns 0x20000018 (0000ms, 19926ms total)
T36F8 3831:960 JLINK_ReadReg(R10)  returns 0x2000001A (0000ms, 19926ms total)
T36F8 3831:960 JLINK_ReadReg(R11)  returns 0x20000015 (0000ms, 19926ms total)
T36F8 3831:960 JLINK_ReadReg(R12)  returns 0x00000000 (0000ms, 19926ms total)
T36F8 3831:960 JLINK_ReadReg(R13 (SP))  returns 0x20000590 (0000ms, 19926ms total)
T36F8 3831:960 JLINK_ReadReg(R14)  returns 0x080014B1 (0000ms, 19926ms total)
T36F8 3831:960 JLINK_ReadReg(R15 (PC))  returns 0x08004072 (0000ms, 19926ms total)
T36F8 3831:960 JLINK_ReadReg(XPSR)  returns 0x01000000 (0001ms, 19927ms total)
T36F8 3831:961 JLINK_ReadReg(MSP)  returns 0x20000590 (0000ms, 19927ms total)
T36F8 3831:961 JLINK_ReadReg(PSP)  returns 0x20001000 (0000ms, 19927ms total)
T36F8 3831:961 JLINK_ReadReg(CFBP)  returns 0x00000000 (0000ms, 19927ms total)
T36F8 3834:213 JLINK_ReadMemEx(0x08004072, 0x0002 Bytes, ..., Flags = 0x02000000) -- CPU_ReadMem(64 bytes @ 0x08004040) -- Updating C cache (64 bytes @ 0x08004040) -- Read from C cache (2 bytes @ 0x08004072) - Data: FC F7  returns 0x02 (0001ms, 19928ms total)
T36F8 3834:214 JLINK_Step() -- Read from C cache (2 bytes @ 0x08004072) -- CPU_ReadMem(4 bytes @ 0xE000ED18) -- CPU_WriteMem(4 bytes @ 0xE000ED18) -- CPU_ReadMem(4 bytes @ 0xE000ED18) -- CPU_WriteMem(4 bytes @ 0xE000ED18) -- CPU_ReadMem(4 bytes @ 0xE0001004) -- Read from C cache (2 bytes @ 0x08004074) -- Simulated  returns 0x00 (0006ms, 19934ms total)
T36F8 3834:220 JLINK_ReadReg(R15 (PC))  returns 0x08000DEC (0000ms, 19934ms total)
T36F8 3834:220 JLINK_ReadReg(XPSR)  returns 0x01000000 (0000ms, 19934ms total)
T36F8 3834:220 JLINK_SetBPEx(Addr = 0x08004072, Type = 0xFFFFFFF2)  returns 0x00000006 (0000ms, 19934ms total)
T36F8 3834:220 JLINK_SetBPEx(Addr = 0x08000AAE, Type = 0xFFFFFFF2)  returns 0x00000007 (0000ms, 19934ms total)
T36F8 3834:220 JLINK_Go() -- CPU_WriteMem(4 bytes @ 0xE0002000) -- CPU_WriteMem(4 bytes @ 0xE0002000) -- CPU_ReadMem(4 bytes @ 0xE0001000) -- CPU_WriteMem(4 bytes @ 0xE0001004) (0006ms, 19940ms total)
T36F8 3834:326 JLINK_IsHalted()  returns TRUE (0003ms, 19943ms total)
T36F8 3834:329 JLINK_Halt()  returns 0x00 (0000ms, 19940ms total)
T36F8 3834:329 JLINK_IsHalted()  returns TRUE (0000ms, 19940ms total)
T36F8 3834:329 JLINK_IsHalted()  returns TRUE (0000ms, 19940ms total)
T36F8 3834:329 JLINK_IsHalted()  returns TRUE (0000ms, 19940ms total)
T36F8 3834:329 JLINK_ReadReg(R15 (PC))  returns 0x08004072 (0000ms, 19940ms total)
T36F8 3834:329 JLINK_ReadReg(XPSR)  returns 0x01000000 (0000ms, 19940ms total)
T36F8 3834:329 JLINK_ClrBPEx(BPHandle = 0x00000006)  returns 0x00 (0000ms, 19940ms total)
T36F8 3834:329 JLINK_ClrBPEx(BPHandle = 0x00000007)  returns 0x00 (0000ms, 19940ms total)
T36F8 3834:329 JLINK_ReadMemU32(0xE000ED30, 0x0001 Items, ...) -- CPU_ReadMem(4 bytes @ 0xE000ED30) - Data: 02 00 00 00  returns 0x01 (0001ms, 19941ms total)
T36F8 3834:330 JLINK_ReadMemU32(0xE0001028, 0x0001 Items, ...) -- CPU_ReadMem(4 bytes @ 0xE0001028) - Data: 00 00 00 00  returns 0x01 (0001ms, 19942ms total)
T36F8 3834:331 JLINK_ReadMemU32(0xE0001038, 0x0001 Items, ...) -- CPU_ReadMem(4 bytes @ 0xE0001038) - Data: 00 02 00 00  returns 0x01 (0001ms, 19943ms total)
T36F8 3834:332 JLINK_ReadMemU32(0xE0001048, 0x0001 Items, ...) -- CPU_ReadMem(4 bytes @ 0xE0001048) - Data: 00 00 00 00  returns 0x01 (0001ms, 19944ms total)
T36F8 3834:333 JLINK_ReadMemU32(0xE0001058, 0x0001 Items, ...) -- CPU_ReadMem(4 bytes @ 0xE0001058) - Data: 00 00 00 00  returns 0x01 (0001ms, 19945ms total)
T36F8 3834:334 JLINK_ReadReg(R0)  returns 0x00000001 (0000ms, 19945ms total)
T36F8 3834:334 JLINK_ReadReg(R1)  returns 0x80800000 (0000ms, 19945ms total)
T36F8 3834:334 JLINK_ReadReg(R2)  returns 0x2000017C (0000ms, 19945ms total)
T36F8 3834:334 JLINK_ReadReg(R3)  returns 0x00000000 (0000ms, 19945ms total)
T36F8 3834:334 JLINK_ReadReg(R4)  returns 0x200000A0 (0000ms, 19945ms total)
T36F8 3834:334 JLINK_ReadReg(R5)  returns 0x20000016 (0000ms, 19945ms total)
T36F8 3834:334 JLINK_ReadReg(R6)  returns 0x20000017 (0000ms, 19945ms total)
T36F8 3834:334 JLINK_ReadReg(R7)  returns 0x20000015 (0000ms, 19945ms total)
T36F8 3834:334 JLINK_ReadReg(R8)  returns 0x20000014 (0000ms, 19945ms total)
T36F8 3834:334 JLINK_ReadReg(R9)  returns 0x20000018 (0000ms, 19945ms total)
T36F8 3834:334 JLINK_ReadReg(R10)  returns 0x2000001A (0000ms, 19945ms total)
T36F8 3834:334 JLINK_ReadReg(R11)  returns 0x20000015 (0000ms, 19945ms total)
T36F8 3834:334 JLINK_ReadReg(R12)  returns 0x399C6600 (0000ms, 19945ms total)
T36F8 3834:334 JLINK_ReadReg(R13 (SP))  returns 0x20000590 (0000ms, 19945ms total)
T36F8 3834:334 JLINK_ReadReg(R14)  returns 0x080014B1 (0000ms, 19945ms total)
T36F8 3834:334 JLINK_ReadReg(R15 (PC))  returns 0x08004072 (0000ms, 19945ms total)
T36F8 3834:334 JLINK_ReadReg(XPSR)  returns 0x01000000 (0000ms, 19945ms total)
T36F8 3834:334 JLINK_ReadReg(MSP)  returns 0x20000590 (0000ms, 19945ms total)
T36F8 3834:334 JLINK_ReadReg(PSP)  returns 0x20001000 (0000ms, 19945ms total)
T36F8 3834:334 JLINK_ReadReg(CFBP)  returns 0x00000000 (0001ms, 19946ms total)
T15BC 3836:464 JLINK_ReadMemEx(0x2000017C, 0x0004 Bytes, ..., Flags = 0x02000000) -- CPU_ReadMem(64 bytes @ 0x20000140) -- Updating C cache (64 bytes @ 0x20000140) -- Read from C cache (4 bytes @ 0x2000017C) - Data: 00 00 00 00  returns 0x04 (0001ms, 19947ms total)
T15BC 3836:465 JLINK_ReadMemEx(0x20000180, 0x0004 Bytes, ..., Flags = 0x02000000) -- CPU_ReadMem(64 bytes @ 0x20000180) -- Updating C cache (64 bytes @ 0x20000180) -- Read from C cache (4 bytes @ 0x20000180) - Data: 00 00 00 00  returns 0x04 (0001ms, 19948ms total)
T15BC 3836:466 JLINK_ReadMemEx(0x20000184, 0x0004 Bytes, ..., Flags = 0x02000000) -- Read from C cache (4 bytes @ 0x20000184) - Data: 00 00 00 00  returns 0x04 (0000ms, 19948ms total)
T15BC 3836:466 JLINK_ReadMemEx(0x20000188, 0x0004 Bytes, ..., Flags = 0x02000000) -- Read from C cache (4 bytes @ 0x20000188) - Data: 00 00 00 00  returns 0x04 (0000ms, 19948ms total)
T36F8 3838:445 JLINK_ReadMemEx(0x08004072, 0x0002 Bytes, ..., Flags = 0x02000000) -- CPU_ReadMem(64 bytes @ 0x08004040) -- Updating C cache (64 bytes @ 0x08004040) -- Read from C cache (2 bytes @ 0x08004072) - Data: FC F7  returns 0x02 (0002ms, 19950ms total)
T36F8 3838:447 JLINK_Step() -- Read from C cache (2 bytes @ 0x08004072) -- CPU_ReadMem(4 bytes @ 0xE0001004) -- Read from C cache (2 bytes @ 0x08004074) -- Simulated  returns 0x00 (0002ms, 19952ms total)
T36F8 3838:449 JLINK_ReadReg(R15 (PC))  returns 0x08000DEC (0000ms, 19952ms total)
T36F8 3838:449 JLINK_ReadReg(XPSR)  returns 0x01000000 (0000ms, 19952ms total)
T36F8 3838:449 JLINK_SetBPEx(Addr = 0x08004072, Type = 0xFFFFFFF2)  returns 0x00000008 (0000ms, 19952ms total)
T36F8 3838:449 JLINK_SetBPEx(Addr = 0x08000AAE, Type = 0xFFFFFFF2)  returns 0x00000009 (0000ms, 19952ms total)
T36F8 3838:449 JLINK_Go() -- CPU_WriteMem(4 bytes @ 0xE0002000) -- CPU_WriteMem(4 bytes @ 0xE0002000) -- CPU_ReadMem(4 bytes @ 0xE0001000) -- CPU_WriteMem(4 bytes @ 0xE0001004) (0006ms, 19958ms total)
T36F8 3838:555 JLINK_IsHalted()  returns TRUE (0003ms, 19961ms total)
T36F8 3838:558 JLINK_Halt()  returns 0x00 (0000ms, 19958ms total)
T36F8 3838:558 JLINK_IsHalted()  returns TRUE (0000ms, 19958ms total)
T36F8 3838:558 JLINK_IsHalted()  returns TRUE (0000ms, 19958ms total)
T36F8 3838:558 JLINK_IsHalted()  returns TRUE (0000ms, 19958ms total)
T36F8 3838:558 JLINK_ReadReg(R15 (PC))  returns 0x08004072 (0000ms, 19958ms total)
T36F8 3838:558 JLINK_ReadReg(XPSR)  returns 0x01000000 (0000ms, 19958ms total)
T36F8 3838:558 JLINK_ClrBPEx(BPHandle = 0x00000008)  returns 0x00 (0000ms, 19958ms total)
T36F8 3838:558 JLINK_ClrBPEx(BPHandle = 0x00000009)  returns 0x00 (0000ms, 19958ms total)
T36F8 3838:558 JLINK_ReadMemU32(0xE000ED30, 0x0001 Items, ...) -- CPU_ReadMem(4 bytes @ 0xE000ED30) - Data: 02 00 00 00  returns 0x01 (0001ms, 19959ms total)
T36F8 3838:559 JLINK_ReadMemU32(0xE0001028, 0x0001 Items, ...) -- CPU_ReadMem(4 bytes @ 0xE0001028) - Data: 00 00 00 00  returns 0x01 (0001ms, 19960ms total)
T36F8 3838:560 JLINK_ReadMemU32(0xE0001038, 0x0001 Items, ...) -- CPU_ReadMem(4 bytes @ 0xE0001038) - Data: 00 02 00 00  returns 0x01 (0001ms, 19961ms total)
T36F8 3838:561 JLINK_ReadMemU32(0xE0001048, 0x0001 Items, ...) -- CPU_ReadMem(4 bytes @ 0xE0001048) - Data: 00 00 00 00  returns 0x01 (0001ms, 19962ms total)
T36F8 3838:562 JLINK_ReadMemU32(0xE0001058, 0x0001 Items, ...) -- CPU_ReadMem(4 bytes @ 0xE0001058) - Data: 00 00 00 00  returns 0x01 (0004ms, 19966ms total)
T36F8 3838:568 JLINK_ReadReg(R0)  returns 0x00000001 (0000ms, 19966ms total)
T36F8 3838:568 JLINK_ReadReg(R1)  returns 0x80800000 (0000ms, 19966ms total)
T36F8 3838:568 JLINK_ReadReg(R2)  returns 0x2000017C (0000ms, 19966ms total)
T36F8 3838:568 JLINK_ReadReg(R3)  returns 0x00000000 (0000ms, 19966ms total)
T36F8 3838:568 JLINK_ReadReg(R4)  returns 0x200000A0 (0000ms, 19966ms total)
T36F8 3838:568 JLINK_ReadReg(R5)  returns 0x20000016 (0000ms, 19966ms total)
T36F8 3838:568 JLINK_ReadReg(R6)  returns 0x20000017 (0000ms, 19966ms total)
T36F8 3838:568 JLINK_ReadReg(R7)  returns 0x20000015 (0000ms, 19966ms total)
T36F8 3838:568 JLINK_ReadReg(R8)  returns 0x20000014 (0000ms, 19966ms total)
T36F8 3838:568 JLINK_ReadReg(R9)  returns 0x20000018 (0000ms, 19966ms total)
T36F8 3838:568 JLINK_ReadReg(R10)  returns 0x2000001A (0000ms, 19966ms total)
T36F8 3838:568 JLINK_ReadReg(R11)  returns 0x20000015 (0000ms, 19966ms total)
T36F8 3838:568 JLINK_ReadReg(R12)  returns 0x399C6600 (0000ms, 19966ms total)
T36F8 3838:568 JLINK_ReadReg(R13 (SP))  returns 0x20000590 (0000ms, 19966ms total)
T36F8 3838:568 JLINK_ReadReg(R14)  returns 0x080014B1 (0000ms, 19966ms total)
T36F8 3838:568 JLINK_ReadReg(R15 (PC))  returns 0x08004072 (0000ms, 19966ms total)
T36F8 3838:568 JLINK_ReadReg(XPSR)  returns 0x01000000 (0000ms, 19966ms total)
T36F8 3838:568 JLINK_ReadReg(MSP)  returns 0x20000590 (0000ms, 19966ms total)
T36F8 3838:568 JLINK_ReadReg(PSP)  returns 0x20001000 (0000ms, 19966ms total)
T36F8 3838:568 JLINK_ReadReg(CFBP)  returns 0x00000000 (0000ms, 19966ms total)
T15BC 3838:569 JLINK_ReadMemEx(0x2000017C, 0x0004 Bytes, ..., Flags = 0x02000000) -- CPU_ReadMem(64 bytes @ 0x20000140) -- Updating C cache (64 bytes @ 0x20000140) -- Read from C cache (4 bytes @ 0x2000017C) - Data: 00 00 00 00  returns 0x04 (0001ms, 19967ms total)
T15BC 3838:570 JLINK_ReadMemEx(0x20000180, 0x0004 Bytes, ..., Flags = 0x02000000) -- CPU_ReadMem(64 bytes @ 0x20000180) -- Updating C cache (64 bytes @ 0x20000180) -- Read from C cache (4 bytes @ 0x20000180) - Data: 00 00 00 00  returns 0x04 (0001ms, 19968ms total)
T15BC 3838:571 JLINK_ReadMemEx(0x20000184, 0x0004 Bytes, ..., Flags = 0x02000000) -- Read from C cache (4 bytes @ 0x20000184) - Data: 00 00 00 00  returns 0x04 (0000ms, 19968ms total)
T15BC 3838:571 JLINK_ReadMemEx(0x20000188, 0x0004 Bytes, ..., Flags = 0x02000000) -- Read from C cache (4 bytes @ 0x20000188) - Data: 00 00 00 00  returns 0x04 (0000ms, 19968ms total)
T36F8 3839:142 JLINK_ReadMemEx(0x08004072, 0x0002 Bytes, ..., Flags = 0x02000000) -- CPU_ReadMem(64 bytes @ 0x08004040) -- Updating C cache (64 bytes @ 0x08004040) -- Read from C cache (2 bytes @ 0x08004072) - Data: FC F7  returns 0x02 (0002ms, 19970ms total)
T36F8 3839:144 JLINK_Step() -- Read from C cache (2 bytes @ 0x08004072) -- CPU_ReadMem(4 bytes @ 0xE0001004) -- Read from C cache (2 bytes @ 0x08004074) -- Simulated  returns 0x00 (0002ms, 19972ms total)
T36F8 3839:146 JLINK_ReadReg(R15 (PC))  returns 0x08000DEC (0000ms, 19972ms total)
T36F8 3839:146 JLINK_ReadReg(XPSR)  returns 0x01000000 (0000ms, 19972ms total)
T36F8 3839:146 JLINK_SetBPEx(Addr = 0x08004072, Type = 0xFFFFFFF2)  returns 0x0000000A (0000ms, 19972ms total)
T36F8 3839:146 JLINK_SetBPEx(Addr = 0x08000AAE, Type = 0xFFFFFFF2)  returns 0x0000000B (0000ms, 19972ms total)
T36F8 3839:146 JLINK_Go() -- CPU_WriteMem(4 bytes @ 0xE0002000) -- CPU_WriteMem(4 bytes @ 0xE0002000) -- CPU_ReadMem(4 bytes @ 0xE0001000) -- CPU_WriteMem(4 bytes @ 0xE0001004) (0006ms, 19978ms total)
T36F8 3839:252 JLINK_IsHalted()  returns TRUE (0003ms, 19981ms total)
T36F8 3839:255 JLINK_Halt()  returns 0x00 (0000ms, 19978ms total)
T36F8 3839:255 JLINK_IsHalted()  returns TRUE (0000ms, 19978ms total)
T36F8 3839:255 JLINK_IsHalted()  returns TRUE (0000ms, 19978ms total)
T36F8 3839:255 JLINK_IsHalted()  returns TRUE (0000ms, 19978ms total)
T36F8 3839:255 JLINK_ReadReg(R15 (PC))  returns 0x08004072 (0000ms, 19978ms total)
T36F8 3839:255 JLINK_ReadReg(XPSR)  returns 0x01000000 (0000ms, 19978ms total)
T36F8 3839:255 JLINK_ClrBPEx(BPHandle = 0x0000000A)  returns 0x00 (0000ms, 19978ms total)
T36F8 3839:255 JLINK_ClrBPEx(BPHandle = 0x0000000B)  returns 0x00 (0000ms, 19978ms total)
T36F8 3839:255 JLINK_ReadMemU32(0xE000ED30, 0x0001 Items, ...) -- CPU_ReadMem(4 bytes @ 0xE000ED30) - Data: 02 00 00 00  returns 0x01 (0001ms, 19979ms total)
T36F8 3839:256 JLINK_ReadMemU32(0xE0001028, 0x0001 Items, ...) -- CPU_ReadMem(4 bytes @ 0xE0001028) - Data: 00 00 00 00  returns 0x01 (0001ms, 19980ms total)
T36F8 3839:257 JLINK_ReadMemU32(0xE0001038, 0x0001 Items, ...) -- CPU_ReadMem(4 bytes @ 0xE0001038) - Data: 00 02 00 00  returns 0x01 (0001ms, 19981ms total)
T36F8 3839:258 JLINK_ReadMemU32(0xE0001048, 0x0001 Items, ...) -- CPU_ReadMem(4 bytes @ 0xE0001048) - Data: 00 00 00 00  returns 0x01 (0001ms, 19982ms total)
T36F8 3839:259 JLINK_ReadMemU32(0xE0001058, 0x0001 Items, ...) -- CPU_ReadMem(4 bytes @ 0xE0001058) - Data: 00 00 00 00  returns 0x01 (0001ms, 19983ms total)
T36F8 3839:260 JLINK_ReadReg(R0)  returns 0x00000001 (0000ms, 19983ms total)
T36F8 3839:260 JLINK_ReadReg(R1)  returns 0x80800000 (0000ms, 19983ms total)
T36F8 3839:260 JLINK_ReadReg(R2)  returns 0x2000017C (0000ms, 19983ms total)
T36F8 3839:260 JLINK_ReadReg(R3)  returns 0x00000000 (0000ms, 19983ms total)
T36F8 3839:260 JLINK_ReadReg(R4)  returns 0x200000A0 (0000ms, 19983ms total)
T36F8 3839:260 JLINK_ReadReg(R5)  returns 0x20000016 (0000ms, 19983ms total)
T36F8 3839:260 JLINK_ReadReg(R6)  returns 0x20000017 (0000ms, 19983ms total)
T36F8 3839:260 JLINK_ReadReg(R7)  returns 0x20000015 (0000ms, 19983ms total)
T36F8 3839:260 JLINK_ReadReg(R8)  returns 0x20000014 (0000ms, 19983ms total)
T36F8 3839:260 JLINK_ReadReg(R9)  returns 0x20000018 (0000ms, 19983ms total)
T36F8 3839:260 JLINK_ReadReg(R10)  returns 0x2000001A (0000ms, 19983ms total)
T36F8 3839:260 JLINK_ReadReg(R11)  returns 0x20000015 (0000ms, 19983ms total)
T36F8 3839:260 JLINK_ReadReg(R12)  returns 0x399C6600 (0000ms, 19983ms total)
T36F8 3839:260 JLINK_ReadReg(R13 (SP))  returns 0x20000590 (0000ms, 19983ms total)
T36F8 3839:260 JLINK_ReadReg(R14)  returns 0x080014B1 (0000ms, 19983ms total)
T36F8 3839:260 JLINK_ReadReg(R15 (PC))  returns 0x08004072 (0000ms, 19983ms total)
T36F8 3839:260 JLINK_ReadReg(XPSR)  returns 0x01000000 (0000ms, 19983ms total)
T36F8 3839:260 JLINK_ReadReg(MSP)  returns 0x20000590 (0000ms, 19983ms total)
T36F8 3839:260 JLINK_ReadReg(PSP)  returns 0x20001000 (0000ms, 19983ms total)
T36F8 3839:261 JLINK_ReadReg(CFBP)  returns 0x00000000 (0000ms, 19984ms total)
T15BC 3839:261 JLINK_ReadMemEx(0x2000017C, 0x0004 Bytes, ..., Flags = 0x02000000) -- CPU_ReadMem(64 bytes @ 0x20000140) -- Updating C cache (64 bytes @ 0x20000140) -- Read from C cache (4 bytes @ 0x2000017C) - Data: 00 00 00 00  returns 0x04 (0001ms, 19985ms total)
T15BC 3839:262 JLINK_ReadMemEx(0x20000180, 0x0004 Bytes, ..., Flags = 0x02000000) -- CPU_ReadMem(64 bytes @ 0x20000180) -- Updating C cache (64 bytes @ 0x20000180) -- Read from C cache (4 bytes @ 0x20000180) - Data: 00 00 00 00  returns 0x04 (0001ms, 19986ms total)
T15BC 3839:263 JLINK_ReadMemEx(0x20000184, 0x0004 Bytes, ..., Flags = 0x02000000) -- Read from C cache (4 bytes @ 0x20000184) - Data: 00 00 00 00  returns 0x04 (0000ms, 19986ms total)
T15BC 3839:263 JLINK_ReadMemEx(0x20000188, 0x0004 Bytes, ..., Flags = 0x02000000) -- Read from C cache (4 bytes @ 0x20000188) - Data: 00 00 00 00  returns 0x04 (0000ms, 19986ms total)
T36F8 3839:937 JLINK_ReadMemEx(0x08004072, 0x0002 Bytes, ..., Flags = 0x02000000) -- CPU_ReadMem(64 bytes @ 0x08004040) -- Updating C cache (64 bytes @ 0x08004040) -- Read from C cache (2 bytes @ 0x08004072) - Data: FC F7  returns 0x02 (0001ms, 19987ms total)
T36F8 3839:938 JLINK_Step() -- Read from C cache (2 bytes @ 0x08004072) -- CPU_ReadMem(4 bytes @ 0xE0001004) -- Read from C cache (2 bytes @ 0x08004074) -- Simulated  returns 0x00 (0002ms, 19989ms total)
T36F8 3839:940 JLINK_ReadReg(R15 (PC))  returns 0x08000DEC (0000ms, 19989ms total)
T36F8 3839:940 JLINK_ReadReg(XPSR)  returns 0x01000000 (0000ms, 19989ms total)
T36F8 3839:940 JLINK_SetBPEx(Addr = 0x08004072, Type = 0xFFFFFFF2)  returns 0x0000000C (0000ms, 19989ms total)
T36F8 3839:940 JLINK_SetBPEx(Addr = 0x08000AAE, Type = 0xFFFFFFF2)  returns 0x0000000D (0000ms, 19989ms total)
T36F8 3839:940 JLINK_Go() -- CPU_WriteMem(4 bytes @ 0xE0002000) -- CPU_WriteMem(4 bytes @ 0xE0002000) -- CPU_ReadMem(4 bytes @ 0xE0001000) -- CPU_WriteMem(4 bytes @ 0xE0001004) (0006ms, 19995ms total)
T36F8 3840:046 JLINK_IsHalted()  returns TRUE (0003ms, 19998ms total)
T36F8 3840:049 JLINK_Halt()  returns 0x00 (0000ms, 19995ms total)
T36F8 3840:049 JLINK_IsHalted()  returns TRUE (0000ms, 19995ms total)
T36F8 3840:049 JLINK_IsHalted()  returns TRUE (0000ms, 19995ms total)
T36F8 3840:049 JLINK_IsHalted()  returns TRUE (0000ms, 19995ms total)
T36F8 3840:049 JLINK_ReadReg(R15 (PC))  returns 0x08004072 (0000ms, 19995ms total)
T36F8 3840:049 JLINK_ReadReg(XPSR)  returns 0x01000000 (0000ms, 19995ms total)
T36F8 3840:049 JLINK_ClrBPEx(BPHandle = 0x0000000C)  returns 0x00 (0000ms, 19995ms total)
T36F8 3840:049 JLINK_ClrBPEx(BPHandle = 0x0000000D)  returns 0x00 (0000ms, 19995ms total)
T36F8 3840:049 JLINK_ReadMemU32(0xE000ED30, 0x0001 Items, ...) -- CPU_ReadMem(4 bytes @ 0xE000ED30) - Data: 02 00 00 00  returns 0x01 (0001ms, 19996ms total)
T36F8 3840:050 JLINK_ReadMemU32(0xE0001028, 0x0001 Items, ...) -- CPU_ReadMem(4 bytes @ 0xE0001028) - Data: 00 00 00 00  returns 0x01 (0001ms, 19997ms total)
T36F8 3840:051 JLINK_ReadMemU32(0xE0001038, 0x0001 Items, ...) -- CPU_ReadMem(4 bytes @ 0xE0001038) - Data: 00 02 00 00  returns 0x01 (0001ms, 19998ms total)
T36F8 3840:052 JLINK_ReadMemU32(0xE0001048, 0x0001 Items, ...) -- CPU_ReadMem(4 bytes @ 0xE0001048) - Data: 00 00 00 00  returns 0x01 (0001ms, 19999ms total)
T36F8 3840:053 JLINK_ReadMemU32(0xE0001058, 0x0001 Items, ...) -- CPU_ReadMem(4 bytes @ 0xE0001058) - Data: 00 00 00 00  returns 0x01 (0001ms, 20000ms total)
T36F8 3840:054 JLINK_ReadReg(R0)  returns 0x00000001 (0000ms, 20000ms total)
T36F8 3840:054 JLINK_ReadReg(R1)  returns 0x80800000 (0000ms, 20000ms total)
T36F8 3840:054 JLINK_ReadReg(R2)  returns 0x2000017C (0000ms, 20000ms total)
T36F8 3840:054 JLINK_ReadReg(R3)  returns 0x00000000 (0000ms, 20000ms total)
T36F8 3840:054 JLINK_ReadReg(R4)  returns 0x200000A0 (0000ms, 20000ms total)
T36F8 3840:054 JLINK_ReadReg(R5)  returns 0x20000016 (0000ms, 20000ms total)
T36F8 3840:054 JLINK_ReadReg(R6)  returns 0x20000017 (0000ms, 20000ms total)
T36F8 3840:054 JLINK_ReadReg(R7)  returns 0x20000015 (0000ms, 20000ms total)
T36F8 3840:054 JLINK_ReadReg(R8)  returns 0x20000014 (0000ms, 20000ms total)
T36F8 3840:054 JLINK_ReadReg(R9)  returns 0x20000018 (0000ms, 20000ms total)
T36F8 3840:054 JLINK_ReadReg(R10)  returns 0x2000001A (0000ms, 20000ms total)
T36F8 3840:054 JLINK_ReadReg(R11)  returns 0x20000015 (0000ms, 20000ms total)
T36F8 3840:054 JLINK_ReadReg(R12)  returns 0x399C6600 (0000ms, 20000ms total)
T36F8 3840:054 JLINK_ReadReg(R13 (SP))  returns 0x20000590 (0000ms, 20000ms total)
T36F8 3840:055 JLINK_ReadReg(R14)  returns 0x080014B1 (0000ms, 20001ms total)
T36F8 3840:055 JLINK_ReadReg(R15 (PC))  returns 0x08004072 (0000ms, 20001ms total)
T36F8 3840:055 JLINK_ReadReg(XPSR)  returns 0x01000000 (0000ms, 20001ms total)
T36F8 3840:055 JLINK_ReadReg(MSP)  returns 0x20000590 (0000ms, 20001ms total)
T36F8 3840:055 JLINK_ReadReg(PSP)  returns 0x20001000 (0000ms, 20001ms total)
T36F8 3840:055 JLINK_ReadReg(CFBP)  returns 0x00000000 (0000ms, 20001ms total)
T15BC 3840:055 JLINK_ReadMemEx(0x2000017C, 0x0004 Bytes, ..., Flags = 0x02000000) -- CPU_ReadMem(64 bytes @ 0x20000140) -- Updating C cache (64 bytes @ 0x20000140) -- Read from C cache (4 bytes @ 0x2000017C) - Data: 00 00 00 00  returns 0x04 (0001ms, 20002ms total)
T15BC 3840:056 JLINK_ReadMemEx(0x20000180, 0x0004 Bytes, ..., Flags = 0x02000000) -- CPU_ReadMem(64 bytes @ 0x20000180) -- Updating C cache (64 bytes @ 0x20000180) -- Read from C cache (4 bytes @ 0x20000180) - Data: 00 00 00 00  returns 0x04 (0001ms, 20003ms total)
T15BC 3840:057 JLINK_ReadMemEx(0x20000184, 0x0004 Bytes, ..., Flags = 0x02000000) -- Read from C cache (4 bytes @ 0x20000184) - Data: 00 00 00 00  returns 0x04 (0000ms, 20003ms total)
T15BC 3840:057 JLINK_ReadMemEx(0x20000188, 0x0004 Bytes, ..., Flags = 0x02000000) -- Read from C cache (4 bytes @ 0x20000188) - Data: 00 00 00 00  returns 0x04 (0000ms, 20003ms total)
T36F8 3840:570 JLINK_ReadMemEx(0x08004072, 0x0002 Bytes, ..., Flags = 0x02000000) -- CPU_ReadMem(64 bytes @ 0x08004040) -- Updating C cache (64 bytes @ 0x08004040) -- Read from C cache (2 bytes @ 0x08004072) - Data: FC F7  returns 0x02 (0002ms, 20005ms total)
T36F8 3840:572 JLINK_Step() -- Read from C cache (2 bytes @ 0x08004072) -- CPU_ReadMem(4 bytes @ 0xE0001004) -- Read from C cache (2 bytes @ 0x08004074) -- Simulated  returns 0x00 (0002ms, 20007ms total)
T36F8 3840:574 JLINK_ReadReg(R15 (PC))  returns 0x08000DEC (0000ms, 20007ms total)
T36F8 3840:574 JLINK_ReadReg(XPSR)  returns 0x01000000 (0000ms, 20007ms total)
T36F8 3840:574 JLINK_SetBPEx(Addr = 0x08004072, Type = 0xFFFFFFF2)  returns 0x0000000E (0000ms, 20007ms total)
T36F8 3840:574 JLINK_SetBPEx(Addr = 0x08000AAE, Type = 0xFFFFFFF2)  returns 0x0000000F (0000ms, 20007ms total)
T36F8 3840:574 JLINK_Go() -- CPU_WriteMem(4 bytes @ 0xE0002000) -- CPU_WriteMem(4 bytes @ 0xE0002000) -- CPU_ReadMem(4 bytes @ 0xE0001000) -- CPU_WriteMem(4 bytes @ 0xE0001004) (0006ms, 20013ms total)
T36F8 3840:680 JLINK_IsHalted()  returns TRUE (0003ms, 20016ms total)
T36F8 3840:683 JLINK_Halt()  returns 0x00 (0000ms, 20013ms total)
T36F8 3840:683 JLINK_IsHalted()  returns TRUE (0000ms, 20013ms total)
T36F8 3840:683 JLINK_IsHalted()  returns TRUE (0000ms, 20013ms total)
T36F8 3840:683 JLINK_IsHalted()  returns TRUE (0000ms, 20013ms total)
T36F8 3840:683 JLINK_ReadReg(R15 (PC))  returns 0x08004072 (0000ms, 20013ms total)
T36F8 3840:683 JLINK_ReadReg(XPSR)  returns 0x01000000 (0000ms, 20013ms total)
T36F8 3840:683 JLINK_ClrBPEx(BPHandle = 0x0000000E)  returns 0x00 (0000ms, 20013ms total)
T36F8 3840:683 JLINK_ClrBPEx(BPHandle = 0x0000000F)  returns 0x00 (0000ms, 20013ms total)
T36F8 3840:683 JLINK_ReadMemU32(0xE000ED30, 0x0001 Items, ...) -- CPU_ReadMem(4 bytes @ 0xE000ED30) - Data: 02 00 00 00  returns 0x01 (0001ms, 20014ms total)
T36F8 3840:684 JLINK_ReadMemU32(0xE0001028, 0x0001 Items, ...) -- CPU_ReadMem(4 bytes @ 0xE0001028) - Data: 00 00 00 00  returns 0x01 (0001ms, 20015ms total)
T36F8 3840:685 JLINK_ReadMemU32(0xE0001038, 0x0001 Items, ...) -- CPU_ReadMem(4 bytes @ 0xE0001038) - Data: 00 02 00 00  returns 0x01 (0001ms, 20016ms total)
T36F8 3840:686 JLINK_ReadMemU32(0xE0001048, 0x0001 Items, ...) -- CPU_ReadMem(4 bytes @ 0xE0001048) - Data: 00 00 00 00  returns 0x01 (0001ms, 20017ms total)
T36F8 3840:687 JLINK_ReadMemU32(0xE0001058, 0x0001 Items, ...) -- CPU_ReadMem(4 bytes @ 0xE0001058) - Data: 00 00 00 00  returns 0x01 (0001ms, 20018ms total)
T36F8 3840:688 JLINK_ReadReg(R0)  returns 0x00000001 (0000ms, 20018ms total)
T36F8 3840:688 JLINK_ReadReg(R1)  returns 0x80800000 (0000ms, 20018ms total)
T36F8 3840:688 JLINK_ReadReg(R2)  returns 0x2000017C (0000ms, 20018ms total)
T36F8 3840:688 JLINK_ReadReg(R3)  returns 0x00000000 (0000ms, 20018ms total)
T36F8 3840:688 JLINK_ReadReg(R4)  returns 0x200000A0 (0000ms, 20018ms total)
T36F8 3840:688 JLINK_ReadReg(R5)  returns 0x20000016 (0000ms, 20018ms total)
T36F8 3840:688 JLINK_ReadReg(R6)  returns 0x20000017 (0000ms, 20018ms total)
T36F8 3840:688 JLINK_ReadReg(R7)  returns 0x20000015 (0000ms, 20018ms total)
T36F8 3840:688 JLINK_ReadReg(R8)  returns 0x20000014 (0000ms, 20018ms total)
T36F8 3840:688 JLINK_ReadReg(R9)  returns 0x20000018 (0000ms, 20018ms total)
T36F8 3840:688 JLINK_ReadReg(R10)  returns 0x2000001A (0000ms, 20018ms total)
T36F8 3840:688 JLINK_ReadReg(R11)  returns 0x20000015 (0000ms, 20018ms total)
T36F8 3840:688 JLINK_ReadReg(R12)  returns 0x399C6600 (0000ms, 20018ms total)
T36F8 3840:688 JLINK_ReadReg(R13 (SP))  returns 0x20000590 (0000ms, 20018ms total)
T36F8 3840:688 JLINK_ReadReg(R14)  returns 0x080014B1 (0000ms, 20018ms total)
T36F8 3840:688 JLINK_ReadReg(R15 (PC))  returns 0x08004072 (0000ms, 20018ms total)
T36F8 3840:688 JLINK_ReadReg(XPSR)  returns 0x01000000 (0000ms, 20018ms total)
T36F8 3840:688 JLINK_ReadReg(MSP)  returns 0x20000590 (0000ms, 20018ms total)
T36F8 3840:688 JLINK_ReadReg(PSP)  returns 0x20001000 (0001ms, 20019ms total)
T36F8 3840:689 JLINK_ReadReg(CFBP)  returns 0x00000000 (0000ms, 20019ms total)
T15BC 3840:689 JLINK_ReadMemEx(0x2000017C, 0x0004 Bytes, ..., Flags = 0x02000000) -- CPU_ReadMem(64 bytes @ 0x20000140) -- Updating C cache (64 bytes @ 0x20000140) -- Read from C cache (4 bytes @ 0x2000017C) - Data: 00 00 00 00  returns 0x04 (0001ms, 20020ms total)
T15BC 3840:690 JLINK_ReadMemEx(0x20000180, 0x0004 Bytes, ..., Flags = 0x02000000) -- CPU_ReadMem(64 bytes @ 0x20000180) -- Updating C cache (64 bytes @ 0x20000180) -- Read from C cache (4 bytes @ 0x20000180) - Data: 00 00 00 00  returns 0x04 (0001ms, 20021ms total)
T15BC 3840:691 JLINK_ReadMemEx(0x20000184, 0x0004 Bytes, ..., Flags = 0x02000000) -- Read from C cache (4 bytes @ 0x20000184) - Data: 00 00 00 00  returns 0x04 (0000ms, 20021ms total)
T15BC 3840:691 JLINK_ReadMemEx(0x20000188, 0x0004 Bytes, ..., Flags = 0x02000000) -- Read from C cache (4 bytes @ 0x20000188) - Data: 00 00 00 00  returns 0x04 (0000ms, 20021ms total)
T36F8 3841:152 JLINK_ReadMemEx(0x08004072, 0x0002 Bytes, ..., Flags = 0x02000000) -- CPU_ReadMem(64 bytes @ 0x08004040) -- Updating C cache (64 bytes @ 0x08004040) -- Read from C cache (2 bytes @ 0x08004072) - Data: FC F7  returns 0x02 (0001ms, 20022ms total)
T36F8 3841:153 JLINK_Step() -- Read from C cache (2 bytes @ 0x08004072) -- CPU_ReadMem(4 bytes @ 0xE0001004) -- Read from C cache (2 bytes @ 0x08004074) -- Simulated  returns 0x00 (0001ms, 20023ms total)
T36F8 3841:154 JLINK_ReadReg(R15 (PC))  returns 0x08000DEC (0000ms, 20023ms total)
T36F8 3841:154 JLINK_ReadReg(XPSR)  returns 0x01000000 (0000ms, 20023ms total)
T36F8 3841:154 JLINK_SetBPEx(Addr = 0x08004072, Type = 0xFFFFFFF2)  returns 0x00000010 (0000ms, 20023ms total)
T36F8 3841:154 JLINK_SetBPEx(Addr = 0x08000AAE, Type = 0xFFFFFFF2)  returns 0x00000011 (0000ms, 20023ms total)
T36F8 3841:154 JLINK_Go() -- CPU_WriteMem(4 bytes @ 0xE0002000) -- CPU_WriteMem(4 bytes @ 0xE0002000) -- CPU_ReadMem(4 bytes @ 0xE0001000) -- CPU_WriteMem(4 bytes @ 0xE0001004) (0006ms, 20029ms total)
T36F8 3841:260 JLINK_IsHalted()  returns TRUE (0003ms, 20032ms total)
T36F8 3841:263 JLINK_Halt()  returns 0x00 (0000ms, 20029ms total)
T36F8 3841:263 JLINK_IsHalted()  returns TRUE (0000ms, 20029ms total)
T36F8 3841:263 JLINK_IsHalted()  returns TRUE (0000ms, 20029ms total)
T36F8 3841:263 JLINK_IsHalted()  returns TRUE (0000ms, 20029ms total)
T36F8 3841:263 JLINK_ReadReg(R15 (PC))  returns 0x08004072 (0000ms, 20029ms total)
T36F8 3841:263 JLINK_ReadReg(XPSR)  returns 0x01000000 (0000ms, 20029ms total)
T36F8 3841:263 JLINK_ClrBPEx(BPHandle = 0x00000010)  returns 0x00 (0000ms, 20029ms total)
T36F8 3841:263 JLINK_ClrBPEx(BPHandle = 0x00000011)  returns 0x00 (0000ms, 20029ms total)
T36F8 3841:263 JLINK_ReadMemU32(0xE000ED30, 0x0001 Items, ...) -- CPU_ReadMem(4 bytes @ 0xE000ED30) - Data: 02 00 00 00  returns 0x01 (0001ms, 20030ms total)
T36F8 3841:264 JLINK_ReadMemU32(0xE0001028, 0x0001 Items, ...) -- CPU_ReadMem(4 bytes @ 0xE0001028) - Data: 00 00 00 00  returns 0x01 (0001ms, 20031ms total)
T36F8 3841:265 JLINK_ReadMemU32(0xE0001038, 0x0001 Items, ...) -- CPU_ReadMem(4 bytes @ 0xE0001038) - Data: 00 02 00 00  returns 0x01 (0001ms, 20032ms total)
T36F8 3841:266 JLINK_ReadMemU32(0xE0001048, 0x0001 Items, ...) -- CPU_ReadMem(4 bytes @ 0xE0001048) - Data: 00 00 00 00  returns 0x01 (0001ms, 20033ms total)
T36F8 3841:267 JLINK_ReadMemU32(0xE0001058, 0x0001 Items, ...) -- CPU_ReadMem(4 bytes @ 0xE0001058) - Data: 00 00 00 00  returns 0x01 (0001ms, 20034ms total)
T36F8 3841:268 JLINK_ReadReg(R0)  returns 0x00000001 (0000ms, 20034ms total)
T36F8 3841:268 JLINK_ReadReg(R1)  returns 0x80800000 (0000ms, 20034ms total)
T36F8 3841:268 JLINK_ReadReg(R2)  returns 0x2000017C (0000ms, 20034ms total)
T36F8 3841:268 JLINK_ReadReg(R3)  returns 0x00000000 (0000ms, 20034ms total)
T36F8 3841:268 JLINK_ReadReg(R4)  returns 0x200000A0 (0000ms, 20034ms total)
T36F8 3841:268 JLINK_ReadReg(R5)  returns 0x20000016 (0000ms, 20034ms total)
T36F8 3841:268 JLINK_ReadReg(R6)  returns 0x20000017 (0000ms, 20034ms total)
T36F8 3841:268 JLINK_ReadReg(R7)  returns 0x20000015 (0000ms, 20034ms total)
T36F8 3841:268 JLINK_ReadReg(R8)  returns 0x20000014 (0000ms, 20034ms total)
T36F8 3841:268 JLINK_ReadReg(R9)  returns 0x20000018 (0000ms, 20034ms total)
T36F8 3841:268 JLINK_ReadReg(R10)  returns 0x2000001A (0000ms, 20034ms total)
T36F8 3841:268 JLINK_ReadReg(R11)  returns 0x20000015 (0000ms, 20034ms total)
T36F8 3841:268 JLINK_ReadReg(R12)  returns 0x399C6600 (0000ms, 20034ms total)
T36F8 3841:268 JLINK_ReadReg(R13 (SP))  returns 0x20000590 (0000ms, 20034ms total)
T36F8 3841:268 JLINK_ReadReg(R14)  returns 0x080014B1 (0000ms, 20034ms total)
T36F8 3841:269 JLINK_ReadReg(R15 (PC))  returns 0x08004072 (0000ms, 20035ms total)
T36F8 3841:269 JLINK_ReadReg(XPSR)  returns 0x01000000 (0000ms, 20035ms total)
T36F8 3841:269 JLINK_ReadReg(MSP)  returns 0x20000590 (0000ms, 20035ms total)
T36F8 3841:269 JLINK_ReadReg(PSP)  returns 0x20001000 (0000ms, 20035ms total)
T36F8 3841:269 JLINK_ReadReg(CFBP)  returns 0x00000000 (0000ms, 20035ms total)
T15BC 3841:269 JLINK_ReadMemEx(0x2000017C, 0x0004 Bytes, ..., Flags = 0x02000000) -- CPU_ReadMem(64 bytes @ 0x20000140) -- Updating C cache (64 bytes @ 0x20000140) -- Read from C cache (4 bytes @ 0x2000017C) - Data: 00 00 00 00  returns 0x04 (0001ms, 20036ms total)
